<Qucs Dataset 1.0.7>
<indep dtime 16>
  +0.00000000000e+00
  +1.00000000000e-09
  +2.00000000000e-09
  +3.00000000000e-09
  +4.00000000000e-09
  +5.00000000000e-09
  +6.00000000000e-09
  +7.00000000000e-09
  +8.00000000000e-09
  +9.00000000000e-09
  +1.00000000000e-08
  +1.10000000000e-08
  +1.20000000000e-08
  +1.30000000000e-08
  +1.40000000000e-08
  +1.50000000000e-08
</indep>
<dep net_net0.X dtime>
  1
  0
  1
  0
  0
  0
  0
  0
  1
  0
  1
  0
  0
  0
  0
  0
</dep>
<dep net_net1.X dtime>
  1
  1
  1
  1
  0
  0
  0
  0
  1
  1
  1
  1
  0
  0
  0
  0
</dep>
<dep net_net10.X dtime>
  1
  1
  1
  1
  0
  0
  0
  0
  0
  0
  0
  0
  0
  0
  0
  0
</dep>
<dep net_net11.X dtime>
  1
  1
  1
  1
  1
  1
  1
  1
  0
  0
  0
  0
  0
  0
  0
  0
</dep>
<dep net_net12.X dtime>
  1
  0
  1
  0
  0
  0
  0
  0
  1
  0
  1
  0
  1
  0
  0
  0
</dep>
<dep net_net13.X dtime>
  1
  1
  1
  1
  0
  0
  0
  0
  1
  0
  1
  0
  1
  0
  0
  0
</dep>
<dep net_net2.X dtime>
  1
  0
  1
  0
  1
  0
  1
  0
  1
  0
  1
  0
  1
  0
  1
  0
</dep>
<dep net_net3.X dtime>
  0
  1
  0
  1
  0
  1
  0
  1
  0
  1
  0
  1
  0
  1
  0
  1
</dep>
<dep net_net4.X dtime>
  1
  1
  0
  0
  1
  1
  0
  0
  1
  1
  0
  0
  1
  1
  0
  0
</dep>
<dep net_net5.X dtime>
  0
  0
  1
  1
  0
  0
  1
  1
  0
  0
  1
  1
  0
  0
  1
  1
</dep>
<dep net_net6.X dtime>
  1
  0
  0
  0
  1
  0
  0
  0
  1
  0
  0
  0
  1
  0
  0
  0
</dep>
<dep net_net7.X dtime>
  0
  0
  0
  0
  0
  0
  0
  0
  1
  0
  0
  0
  1
  0
  0
  0
</dep>
<dep net_net8.X dtime>
  0
  0
  0
  0
  0
  0
  0
  0
  1
  1
  1
  1
  1
  1
  1
  1
</dep>
<dep net_net9.X dtime>
  0
  0
  0
  0
  1
  1
  1
  1
  0
  0
  0
  0
  1
  1
  1
  1
</dep>
